
T2F78 000:484 SEGGER J-Link V4.96d Log File (0033ms, 0302ms total)
T2F78 000:484 DLL Compiled: Jan 29 2015 11:45:37 (0034ms, 0303ms total)
T2F78 000:484 Logging started @ 2022-03-09 12:46 (0034ms, 0303ms total)
T2F78 000:518 JLINK_SetWarnOutHandler(...) (0000ms, 0303ms total)
T2F78 000:518 JLINK_OpenEx(...)
Firmware: J-Link ARM-OB STM32 compiled Aug 22 2012 19:52:04
Hardware: V7.00
S/N: 20090928
Feature(s): RDI,FlashDL,FlashBP,JFlash,GDBFull  returns O.K. (0262ms, 0565ms total)
T2F78 000:780 JLINK_SetErrorOutHandler(...) (0000ms, 0565ms total)
T2F78 000:780 JLINK_ExecCommand("ProjectFile = "D:\¼á¹ûÔÆÅÌ\00±àÂëÆ÷µ÷ÊÔ´úÂëV2.0\2022°æ¶àÈ¦±àÂëÆ÷£¨Ôö¼Ó600È¦£©\JLinkSettings.ini"", ...)  returns 0x00 (0006ms, 0571ms total)
T2F78 000:795 JLINK_ExecCommand("Device = STM32F103C8", ...)Device "STM32F103C8" selected.  returns 0x00 (0007ms, 0578ms total)
T2F78 000:802 JLINK_ExecCommand("DisableConnectionTimeout", ...)  returns 0x01 (0000ms, 0578ms total)
T2F78 000:803 JLINK_GetHardwareVersion()  returns 0x11170 (0000ms, 0579ms total)
T2F78 000:803 JLINK_GetDLLVersion()  returns 49604 (0000ms, 0579ms total)
T2F78 000:803 JLINK_GetFirmwareString(...) (0000ms, 0579ms total)
T2F78 000:805 JLINK_GetDLLVersion()  returns 49604 (0000ms, 0579ms total)
T2F78 000:805 JLINK_GetCompileDateTime() (0000ms, 0579ms total)
T2F78 000:806 JLINK_GetFirmwareString(...) (0000ms, 0579ms total)
T2F78 000:807 JLINK_GetHardwareVersion()  returns 0x11170 (0000ms, 0579ms total)
T2F78 000:819 JLINK_TIF_Select(JLINKARM_TIF_SWD)  returns 0x00 (0000ms, 0579ms total)
T2F78 000:819 JLINK_SetSpeed(20000) (0001ms, 0580ms total)
T2F78 000:820 JLINK_GetId() >0x108 TIF>Found SWD-DP with ID 0x1BA01477 >0x0D TIF> >0x28 TIF> >0x0D TIF> >0x28 TIF> >0x0D TIF> >0x21 TIF> >0x0D TIF> >0x28 TIF> >0x0D TIF> >0x28 TIF> >0x0D TIF> >0x28 TIF> >0x0D TIF> >0x21 TIF> >0x0D TIF> >0x21 TIF> >0x0D TIF> >0x28 TIF> >0x0D TIF> >0x21 TIF> >0x0D TIF> >0x21 TIF> >0x0D TIF> >0x28 TIF> >0x0D TIF> >0x28 TIF> >0x108 TIF>Found SWD-DP with ID 0x1BA01477 >0x0D TIF> >0x21 TIF> >0x0D TIF> >0x28 TIF> >0x0D TIF> >0x28 TIF> >0x0D TIF> >0x21 TIF> >0x0D TIF> >0x28 TIF>
 >0x0D TIF> >0x21 TIF> >0x0D TIF> >0x21 TIF> >0x0D TIF> >0x21 TIF> >0x0D TIF> >0x21 TIF> >0x0D TIF> >0x28 TIF> >0x0D TIF> >0x28 TIF> >0x0D TIF> >0x21 TIF> >0x0D TIF> >0x28 TIF> >0x0D TIF> >0x28 TIF> >0x0D TIF> >0x28 TIF> >0x0D TIF> >0x21 TIF> >0x0D TIF> >0x21 TIF> >0x0D TIF> >0x28 TIF> >0x0D TIF> >0x21 TIF> >0x0D TIF> >0x21 TIF>Found Cortex-M3 r2p1, Little endian. -- CPU_WriteMem(4 bytes @ 0xE0002000) -- CPU_ReadMem(4 bytes @ 0xE000EDF0) -- CPU_WriteMem(4 bytes @ 0xE000EDF0)
 -- CPU_ReadMem(4 bytes @ 0xE0002000)FPUnit: 6 code (BP) slots and 2 literal slots -- CPU_ReadMem(4 bytes @ 0xE000EDFC) -- CPU_WriteMem(4 bytes @ 0xE000EDFC) -- CPU_ReadMem(4 bytes @ 0xE0001000) -- CPU_WriteMem(4 bytes @ 0xE0001000) -- CPU_ReadMem(4 bytes @ 0xE000ED88) -- CPU_WriteMem(4 bytes @ 0xE000ED88) -- CPU_ReadMem(4 bytes @ 0xE000ED88) -- CPU_WriteMem(4 bytes @ 0xE000ED88) -- CPU_ReadMem(4 bytes @ 0xE00FF010)TPIU fitted. -- CPU_ReadMem(4 bytes @ 0xE00FF014) -- CPU_ReadMem(4 bytes @ 0xE00FF018)
 >0x0D TIF> >0x21 TIF>  returns 0x1BA01477 (0036ms, 0616ms total)
T2F78 000:856 JLINK_GetDLLVersion()  returns 49604 (0000ms, 0616ms total)
T2F78 000:856 JLINK_CORE_GetFound()  returns 0x30000FF (0000ms, 0616ms total)
T2F78 000:856 JLINK_GetDebugInfo(0x100) -- Value=0xE00FF003  returns 0x00 (0000ms, 0616ms total)
T2F78 000:857 JLINK_ReadMem (0xE00FF000, 0x0020 Bytes, ...) -- CPU is running -- CPU_ReadMem(32 bytes @ 0xE00FF000) - Data: 03 F0 F0 FF 03 20 F0 FF 03 30 F0 FF 03 10 F0 FF ...  returns 0x00 (0001ms, 0617ms total)
T2F78 000:858 JLINK_ReadMem (0xE000EFF0, 0x0010 Bytes, ...) -- CPU is running -- CPU_ReadMem(16 bytes @ 0xE000EFF0) - Data: 0D 00 00 00 E0 00 00 00 05 00 00 00 B1 00 00 00  returns 0x00 (0001ms, 0618ms total)
T2F78 000:859 JLINK_ReadMem (0xE000EFD0, 0x0020 Bytes, ...) -- CPU is running -- CPU_ReadMem(32 bytes @ 0xE000EFD0) - Data: 04 00 00 00 00 00 00 00 00 00 00 00 00 00 00 00 ...  returns 0x00 (0001ms, 0619ms total)
T2F78 000:860 JLINK_ReadMem (0xE0001FF0, 0x0010 Bytes, ...) -- CPU is running -- CPU_ReadMem(16 bytes @ 0xE0001FF0) - Data: 0D 00 00 00 E0 00 00 00 05 00 00 00 B1 00 00 00  returns 0x00 (0001ms, 0620ms total)
T2F78 000:861 JLINK_ReadMem (0xE0001FD0, 0x0020 Bytes, ...) -- CPU is running -- CPU_ReadMem(32 bytes @ 0xE0001FD0) - Data: 04 00 00 00 00 00 00 00 00 00 00 00 00 00 00 00 ...  returns 0x00 (0001ms, 0621ms total)
T2F78 000:862 JLINK_ReadMem (0xE0002FF0, 0x0010 Bytes, ...) -- CPU is running -- CPU_ReadMem(16 bytes @ 0xE0002FF0) - Data: 0D 00 00 00 E0 00 00 00 05 00 00 00 B1 00 00 00  returns 0x00 (0000ms, 0621ms total)
T2F78 000:862 JLINK_ReadMem (0xE0002FD0, 0x0020 Bytes, ...) -- CPU is running -- CPU_ReadMem(32 bytes @ 0xE0002FD0) - Data: 04 00 00 00 00 00 00 00 00 00 00 00 00 00 00 00 ...  returns 0x00 (0001ms, 0622ms total)
T2F78 000:863 JLINK_ReadMem (0xE0000FF0, 0x0010 Bytes, ...) -- CPU is running -- CPU_ReadMem(16 bytes @ 0xE0000FF0) - Data: 0D 00 00 00 E0 00 00 00 05 00 00 00 B1 00 00 00  returns 0x00 (0001ms, 0623ms total)
T2F78 000:864 JLINK_ReadMem (0xE0000FD0, 0x0020 Bytes, ...) -- CPU is running -- CPU_ReadMem(32 bytes @ 0xE0000FD0) - Data: 04 00 00 00 00 00 00 00 00 00 00 00 00 00 00 00 ...  returns 0x00 (0001ms, 0624ms total)
T2F78 000:865 JLINK_ReadMem (0xE0040FF0, 0x0010 Bytes, ...) -- CPU is running -- CPU_ReadMem(16 bytes @ 0xE0040FF0) - Data: 0D 00 00 00 90 00 00 00 05 00 00 00 B1 00 00 00  returns 0x00 (0001ms, 0625ms total)
T2F78 000:866 JLINK_ReadMem (0xE0040FD0, 0x0020 Bytes, ...) -- CPU is running -- CPU_ReadMem(32 bytes @ 0xE0040FD0) - Data: 04 00 00 00 00 00 00 00 00 00 00 00 00 00 00 00 ...  returns 0x00 (0000ms, 0625ms total)
T2F78 000:866 JLINK_ReadMemU32(0xE000ED00, 0x0001 Items, ...) -- CPU is running -- CPU_ReadMem(4 bytes @ 0xE000ED00) - Data: 31 C2 2F 41  returns 0x01 (0001ms, 0626ms total)
T2F78 000:867 JLINK_SetResetType(JLINKARM_RESET_TYPE_NORMAL)  returns JLINKARM_RESET_TYPE_NORMAL (0000ms, 0626ms total)
T2F78 000:867 JLINK_Reset() -- CPU is running -- CPU_WriteMem(4 bytes @ 0xE000EDF0) -- CPU is running -- CPU_WriteMem(4 bytes @ 0xE000EDFC) >0x35 TIF> -- CPU is running -- CPU_WriteMem(4 bytes @ 0xE000ED0C) -- CPU is running -- CPU_ReadMem(4 bytes @ 0xE000EDF0) -- CPU is running -- CPU_ReadMem(4 bytes @ 0xE000EDF0) -- CPU is running -- CPU_WriteMem(4 bytes @ 0xE000EDF0) -- CPU is running -- CPU_WriteMem(4 bytes @ 0xE000EDFC) -- CPU is running -- CPU_ReadMem(4 bytes @ 0xE000EDF0)
 -- CPU_WriteMem(4 bytes @ 0xE0002000) -- CPU_ReadMem(4 bytes @ 0xE000EDFC) -- CPU_ReadMem(4 bytes @ 0xE0001000) (0020ms, 0646ms total)
T2F78 000:887 JLINK_Halt()  returns 0x00 (0000ms, 0646ms total)
T2F78 000:887 JLINK_IsHalted()  returns TRUE (0000ms, 0646ms total)
T2F78 000:887 JLINK_ReadMemU32(0xE000EDF0, 0x0001 Items, ...) -- CPU_ReadMem(4 bytes @ 0xE000EDF0) - Data: 03 00 03 00  returns 0x01 (0000ms, 0646ms total)
T2F78 000:887 JLINK_WriteU32(0xE000EDF0, 0xA05F0003) -- CPU_WriteMem(4 bytes @ 0xE000EDF0)  returns 0x00 (0001ms, 0647ms total)
T2F78 000:888 JLINK_WriteU32(0xE000EDFC, 0x01000000) -- CPU_WriteMem(4 bytes @ 0xE000EDFC)  returns 0x00 (0001ms, 0648ms total)
T2F78 000:895 JLINK_GetHWStatus(...)  returns 0x00 (0000ms, 0648ms total)
T2F78 000:900 JLINK_GetNumBPUnits(Type = 0xFFFFFF00)  returns 0x06 (0000ms, 0648ms total)
T2F78 000:900 JLINK_GetNumBPUnits(Type = 0xF0)  returns 0x2000 (0000ms, 0648ms total)
T2F78 000:900 JLINK_GetNumWPUnits()  returns 0x04 (0000ms, 0648ms total)
T2F78 000:905 JLINK_GetSpeed()  returns 0xFA0 (0000ms, 0648ms total)
T2F78 000:908 JLINK_ReadMemU32(0xE000E004, 0x0001 Items, ...) -- CPU_ReadMem(4 bytes @ 0xE000E004) - Data: 01 00 00 00  returns 0x01 (0001ms, 0649ms total)
T2F78 000:909 JLINK_ReadMemU32(0xE000E004, 0x0001 Items, ...) -- CPU_ReadMem(4 bytes @ 0xE000E004) - Data: 01 00 00 00  returns 0x01 (0000ms, 0649ms total)
T2F78 000:909 JLINK_WriteMem(0xE0001000, 0x001C Bytes, ...) - Data: 01 00 00 00 00 00 00 00 00 00 00 00 00 00 00 00 ... -- CPU_WriteMem(28 bytes @ 0xE0001000)  returns 0x1C (0002ms, 0651ms total)
T2F78 000:911 JLINK_ReadMem (0xE0001000, 0x001C Bytes, ...) -- CPU_ReadMem(28 bytes @ 0xE0001000) - Data: 01 00 00 40 00 00 00 00 00 00 00 00 00 00 00 00 ...  returns 0x00 (0001ms, 0652ms total)
T2F78 000:912 JLINK_Halt()  returns 0x00 (0002ms, 0654ms total)
T2F78 000:914 JLINK_IsHalted()  returns TRUE (0000ms, 0654ms total)
T2F78 001:257 JLINK_WriteMem(0x20000000, 0x0164 Bytes, ...) - Data: 00 BE 0A E0 0D 78 2D 06 68 40 08 24 40 00 00 D3 ... -- CPU_WriteMem(356 bytes @ 0x20000000)  returns 0x164 (0005ms, 0659ms total)
T2F78 001:262 JLINK_WriteReg(R0, 0x08000000)  returns 0x00 (0000ms, 0659ms total)
T2F78 001:262 JLINK_WriteReg(R1, 0x00B71B00)  returns 0x00 (0001ms, 0660ms total)
T2F78 001:263 JLINK_WriteReg(R2, 0x00000001)  returns 0x00 (0000ms, 0660ms total)
T2F78 001:263 JLINK_WriteReg(R3, 0x00000000)  returns 0x00 (0000ms, 0660ms total)
T2F78 001:263 JLINK_WriteReg(R4, 0x00000000)  returns 0x00 (0000ms, 0660ms total)
T2F78 001:263 JLINK_WriteReg(R5, 0x00000000)  returns 0x00 (0000ms, 0660ms total)
T2F78 001:263 JLINK_WriteReg(R6, 0x00000000)  returns 0x00 (0000ms, 0660ms total)
T2F78 001:263 JLINK_WriteReg(R7, 0x00000000)  returns 0x00 (0000ms, 0660ms total)
T2F78 001:263 JLINK_WriteReg(R8, 0x00000000)  returns 0x00 (0000ms, 0660ms total)
T2F78 001:263 JLINK_WriteReg(R9, 0x20000160)  returns 0x00 (0000ms, 0660ms total)
T2F78 001:263 JLINK_WriteReg(R10, 0x00000000)  returns 0x00 (0000ms, 0660ms total)
T2F78 001:263 JLINK_WriteReg(R11, 0x00000000)  returns 0x00 (0000ms, 0660ms total)
T2F78 001:264 JLINK_WriteReg(R12, 0x00000000)  returns 0x00 (0000ms, 0661ms total)
T2F78 001:264 JLINK_WriteReg(R13 (SP), 0x20001000)  returns 0x00 (0000ms, 0661ms total)
T2F78 001:264 JLINK_WriteReg(R14, 0x20000001)  returns 0x00 (0000ms, 0661ms total)
T2F78 001:264 JLINK_WriteReg(R15 (PC), 0x20000038)  returns 0x00 (0000ms, 0661ms total)
T2F78 001:264 JLINK_WriteReg(XPSR, 0x01000000)  returns 0x00 (0000ms, 0661ms total)
T2F78 001:264 JLINK_WriteReg(MSP, 0x20001000)  returns 0x00 (0000ms, 0661ms total)
T2F78 001:264 JLINK_WriteReg(PSP, 0x20001000)  returns 0x00 (0000ms, 0661ms total)
T2F78 001:264 JLINK_WriteReg(CFBP, 0x00000000)  returns 0x00 (0000ms, 0661ms total)
T2F78 001:264 JLINK_SetBPEx(Addr = 0x20000000, Type = 0xFFFFFFF2) -- CPU_ReadMem(2 bytes @ 0x20000000)  returns 0x00000001 (0001ms, 0662ms total)
T2F78 001:265 JLINK_Go() -- CPU_WriteMem(2 bytes @ 0x20000000) -- CPU_WriteMem(4 bytes @ 0xE0002008) -- CPU_WriteMem(4 bytes @ 0xE000200C) -- CPU_WriteMem(4 bytes @ 0xE0002010) -- CPU_WriteMem(4 bytes @ 0xE0002014) -- CPU_WriteMem(4 bytes @ 0xE0002018) -- CPU_WriteMem(4 bytes @ 0xE000201C) -- CPU_WriteMem(4 bytes @ 0xE0001004) (0007ms, 0669ms total)
T2F78 001:272 JLINK_IsHalted() -- CPU_ReadMem(2 bytes @ 0x20000000)  returns TRUE (0004ms, 0673ms total)
T2F78 001:276 JLINK_ReadReg(R15 (PC))  returns 0x20000000 (0000ms, 0669ms total)
T2F78 001:276 JLINK_ClrBPEx(BPHandle = 0x00000001)  returns 0x00 (0000ms, 0669ms total)
T2F78 001:276 JLINK_ReadReg(R0)  returns 0x00000000 (0000ms, 0669ms total)
T2F78 001:295 JLINK_WriteReg(R0, 0x08000000)  returns 0x00 (0000ms, 0669ms total)
T2F78 001:295 JLINK_WriteReg(R1, 0x00B71B00)  returns 0x00 (0000ms, 0669ms total)
T2F78 001:295 JLINK_WriteReg(R2, 0x00000001)  returns 0x00 (0000ms, 0669ms total)
T2F78 001:295 JLINK_WriteReg(R3, 0x00000000)  returns 0x00 (0000ms, 0669ms total)
T2F78 001:295 JLINK_WriteReg(R4, 0x00000000)  returns 0x00 (0000ms, 0669ms total)
T2F78 001:295 JLINK_WriteReg(R5, 0x00000000)  returns 0x00 (0000ms, 0669ms total)
T2F78 001:295 JLINK_WriteReg(R6, 0x00000000)  returns 0x00 (0000ms, 0669ms total)
T2F78 001:295 JLINK_WriteReg(R7, 0x00000000)  returns 0x00 (0001ms, 0670ms total)
T2F78 001:296 JLINK_WriteReg(R8, 0x00000000)  returns 0x00 (0000ms, 0670ms total)
T2F78 001:296 JLINK_WriteReg(R9, 0x20000160)  returns 0x00 (0000ms, 0670ms total)
T2F78 001:296 JLINK_WriteReg(R10, 0x00000000)  returns 0x00 (0000ms, 0670ms total)
T2F78 001:296 JLINK_WriteReg(R11, 0x00000000)  returns 0x00 (0000ms, 0670ms total)
T2F78 001:296 JLINK_WriteReg(R12, 0x00000000)  returns 0x00 (0000ms, 0670ms total)
T2F78 001:296 JLINK_WriteReg(R13 (SP), 0x20001000)  returns 0x00 (0000ms, 0670ms total)
T2F78 001:296 JLINK_WriteReg(R14, 0x20000001)  returns 0x00 (0000ms, 0670ms total)
T2F78 001:296 JLINK_WriteReg(R15 (PC), 0x2000007C)  returns 0x00 (0000ms, 0670ms total)
T2F78 001:296 JLINK_WriteReg(XPSR, 0x01000000)  returns 0x00 (0000ms, 0670ms total)
T2F78 001:296 JLINK_WriteReg(MSP, 0x20001000)  returns 0x00 (0001ms, 0671ms total)
T2F78 001:297 JLINK_WriteReg(PSP, 0x20001000)  returns 0x00 (0000ms, 0671ms total)
T2F78 001:297 JLINK_WriteReg(CFBP, 0x00000000)  returns 0x00 (0000ms, 0671ms total)
T2F78 001:297 JLINK_SetBPEx(Addr = 0x20000000, Type = 0xFFFFFFF2)  returns 0x00000002 (0000ms, 0671ms total)
T2F78 001:297 JLINK_Go() (0002ms, 0673ms total)
T2F78 001:299 JLINK_IsHalted()  returns FALSE (0000ms, 0673ms total)
T2F78 001:496 JLINK_IsHalted()  returns FALSE (0000ms, 0673ms total)
T2F78 001:784 JLINK_IsHalted()  returns FALSE (0000ms, 0673ms total)
T2F78 002:006 JLINK_IsHalted() -- CPU_ReadMem(2 bytes @ 0x20000000)  returns TRUE (0004ms, 0677ms total)
T2F78 002:010 JLINK_ReadReg(R15 (PC))  returns 0x20000000 (0000ms, 0673ms total)
T2F78 002:010 JLINK_ClrBPEx(BPHandle = 0x00000002)  returns 0x00 (0000ms, 0673ms total)
T2F78 002:010 JLINK_ReadReg(R0)  returns 0x00000000 (0000ms, 0673ms total)
T2F78 002:064 JLINK_WriteReg(R0, 0x00000001)  returns 0x00 (0000ms, 0673ms total)
T2F78 002:064 JLINK_WriteReg(R1, 0x00B71B00)  returns 0x00 (0000ms, 0673ms total)
T2F78 002:065 JLINK_WriteReg(R2, 0x00000001)  returns 0x00 (0000ms, 0673ms total)
T2F78 002:065 JLINK_WriteReg(R3, 0x00000000)  returns 0x00 (0000ms, 0673ms total)
T2F78 002:065 JLINK_WriteReg(R4, 0x00000000)  returns 0x00 (0000ms, 0673ms total)
T2F78 002:065 JLINK_WriteReg(R5, 0x00000000)  returns 0x00 (0000ms, 0673ms total)
T2F78 002:065 JLINK_WriteReg(R6, 0x00000000)  returns 0x00 (0000ms, 0673ms total)
T2F78 002:065 JLINK_WriteReg(R7, 0x00000000)  returns 0x00 (0000ms, 0673ms total)
T2F78 002:065 JLINK_WriteReg(R8, 0x00000000)  returns 0x00 (0000ms, 0673ms total)
T2F78 002:065 JLINK_WriteReg(R9, 0x20000160)  returns 0x00 (0000ms, 0673ms total)
T2F78 002:065 JLINK_WriteReg(R10, 0x00000000)  returns 0x00 (0000ms, 0673ms total)
T2F78 002:065 JLINK_WriteReg(R11, 0x00000000)  returns 0x00 (0001ms, 0674ms total)
T2F78 002:066 JLINK_WriteReg(R12, 0x00000000)  returns 0x00 (0000ms, 0674ms total)
T2F78 002:066 JLINK_WriteReg(R13 (SP), 0x20001000)  returns 0x00 (0000ms, 0674ms total)
T2F78 002:066 JLINK_WriteReg(R14, 0x20000001)  returns 0x00 (0000ms, 0674ms total)
T2F78 002:066 JLINK_WriteReg(R15 (PC), 0x2000006A)  returns 0x00 (0000ms, 0674ms total)
T2F78 002:066 JLINK_WriteReg(XPSR, 0x01000000)  returns 0x00 (0000ms, 0674ms total)
T2F78 002:066 JLINK_WriteReg(MSP, 0x20001000)  returns 0x00 (0000ms, 0674ms total)
T2F78 002:066 JLINK_WriteReg(PSP, 0x20001000)  returns 0x00 (0000ms, 0674ms total)
T2F78 002:066 JLINK_WriteReg(CFBP, 0x00000000)  returns 0x00 (0000ms, 0674ms total)
T2F78 002:066 JLINK_SetBPEx(Addr = 0x20000000, Type = 0xFFFFFFF2)  returns 0x00000003 (0000ms, 0674ms total)
T2F78 002:066 JLINK_Go() (0002ms, 0676ms total)
T2F78 002:068 JLINK_IsHalted() -- CPU_ReadMem(2 bytes @ 0x20000000)  returns TRUE (0004ms, 0680ms total)
T2F78 002:072 JLINK_ReadReg(R15 (PC))  returns 0x20000000 (0000ms, 0676ms total)
T2F78 002:072 JLINK_ClrBPEx(BPHandle = 0x00000003)  returns 0x00 (0000ms, 0676ms total)
T2F78 002:072 JLINK_ReadReg(R0)  returns 0x00000000 (0001ms, 0677ms total)
T2F78 002:163 JLINK_WriteMem(0x20000000, 0x0164 Bytes, ...) - Data: 00 BE 0A E0 0D 78 2D 06 68 40 08 24 40 00 00 D3 ... -- CPU_WriteMem(356 bytes @ 0x20000000)  returns 0x164 (0005ms, 0682ms total)
T2F78 002:168 JLINK_WriteReg(R0, 0x08000000)  returns 0x00 (0000ms, 0682ms total)
T2F78 002:168 JLINK_WriteReg(R1, 0x00B71B00)  returns 0x00 (0001ms, 0683ms total)
T2F78 002:169 JLINK_WriteReg(R2, 0x00000002)  returns 0x00 (0000ms, 0683ms total)
T2F78 002:169 JLINK_WriteReg(R3, 0x00000000)  returns 0x00 (0000ms, 0683ms total)
T2F78 002:169 JLINK_WriteReg(R4, 0x00000000)  returns 0x00 (0000ms, 0683ms total)
T2F78 002:169 JLINK_WriteReg(R5, 0x00000000)  returns 0x00 (0000ms, 0683ms total)
T2F78 002:169 JLINK_WriteReg(R6, 0x00000000)  returns 0x00 (0000ms, 0683ms total)
T2F78 002:169 JLINK_WriteReg(R7, 0x00000000)  returns 0x00 (0000ms, 0683ms total)
T2F78 002:169 JLINK_WriteReg(R8, 0x00000000)  returns 0x00 (0000ms, 0683ms total)
T2F78 002:169 JLINK_WriteReg(R9, 0x20000160)  returns 0x00 (0000ms, 0683ms total)
T2F78 002:169 JLINK_WriteReg(R10, 0x00000000)  returns 0x00 (0001ms, 0684ms total)
T2F78 002:170 JLINK_WriteReg(R11, 0x00000000)  returns 0x00 (0000ms, 0684ms total)
T2F78 002:170 JLINK_WriteReg(R12, 0x00000000)  returns 0x00 (0000ms, 0684ms total)
T2F78 002:170 JLINK_WriteReg(R13 (SP), 0x20001000)  returns 0x00 (0000ms, 0684ms total)
T2F78 002:170 JLINK_WriteReg(R14, 0x20000001)  returns 0x00 (0000ms, 0684ms total)
T2F78 002:170 JLINK_WriteReg(R15 (PC), 0x20000038)  returns 0x00 (0000ms, 0684ms total)
T2F78 002:170 JLINK_WriteReg(XPSR, 0x01000000)  returns 0x00 (0000ms, 0684ms total)
T2F78 002:170 JLINK_WriteReg(MSP, 0x20001000)  returns 0x00 (0000ms, 0684ms total)
T2F78 002:170 JLINK_WriteReg(PSP, 0x20001000)  returns 0x00 (0000ms, 0684ms total)
T2F78 002:170 JLINK_WriteReg(CFBP, 0x00000000)  returns 0x00 (0000ms, 0684ms total)
T2F78 002:170 JLINK_SetBPEx(Addr = 0x20000000, Type = 0xFFFFFFF2) -- CPU_ReadMem(2 bytes @ 0x20000000)  returns 0x00000004 (0001ms, 0685ms total)
T2F78 002:171 JLINK_Go() -- CPU_WriteMem(2 bytes @ 0x20000000) (0002ms, 0687ms total)
T2F78 002:173 JLINK_IsHalted() -- CPU_ReadMem(2 bytes @ 0x20000000)  returns TRUE (0004ms, 0691ms total)
T2F78 002:177 JLINK_ReadReg(R15 (PC))  returns 0x20000000 (0000ms, 0687ms total)
T2F78 002:177 JLINK_ClrBPEx(BPHandle = 0x00000004)  returns 0x00 (0001ms, 0688ms total)
T2F78 002:178 JLINK_ReadReg(R0)  returns 0x00000000 (0000ms, 0688ms total)
T2F78 002:178 JLINK_WriteMem(0x20000164, 0x0400 Bytes, ...) - Data: 48 11 00 20 DD 5C 00 08 79 3C 00 08 7B 3C 00 08 ... -- CPU_WriteMem(1024 bytes @ 0x20000164)  returns 0x400 (0013ms, 0701ms total)
T2F78 002:191 JLINK_WriteReg(R0, 0x08000000)  returns 0x00 (0000ms, 0701ms total)
T2F78 002:191 JLINK_WriteReg(R1, 0x00000400)  returns 0x00 (0000ms, 0701ms total)
T2F78 002:191 JLINK_WriteReg(R2, 0x20000164)  returns 0x00 (0000ms, 0701ms total)
T2F78 002:191 JLINK_WriteReg(R3, 0x00000000)  returns 0x00 (0000ms, 0701ms total)
T2F78 002:191 JLINK_WriteReg(R4, 0x00000000)  returns 0x00 (0000ms, 0701ms total)
T2F78 002:191 JLINK_WriteReg(R5, 0x00000000)  returns 0x00 (0000ms, 0701ms total)
T2F78 002:191 JLINK_WriteReg(R6, 0x00000000)  returns 0x00 (0000ms, 0701ms total)
T2F78 002:192 JLINK_WriteReg(R7, 0x00000000)  returns 0x00 (0000ms, 0701ms total)
T2F78 002:192 JLINK_WriteReg(R8, 0x00000000)  returns 0x00 (0000ms, 0701ms total)
T2F78 002:192 JLINK_WriteReg(R9, 0x20000160)  returns 0x00 (0000ms, 0701ms total)
T2F78 002:192 JLINK_WriteReg(R10, 0x00000000)  returns 0x00 (0000ms, 0701ms total)
T2F78 002:192 JLINK_WriteReg(R11, 0x00000000)  returns 0x00 (0000ms, 0701ms total)
T2F78 002:192 JLINK_WriteReg(R12, 0x00000000)  returns 0x00 (0000ms, 0701ms total)
T2F78 002:192 JLINK_WriteReg(R13 (SP), 0x20001000)  returns 0x00 (0000ms, 0701ms total)
T2F78 002:192 JLINK_WriteReg(R14, 0x20000001)  returns 0x00 (0000ms, 0701ms total)
T2F78 002:192 JLINK_WriteReg(R15 (PC), 0x200000F4)  returns 0x00 (0000ms, 0701ms total)
T2F78 002:192 JLINK_WriteReg(XPSR, 0x01000000)  returns 0x00 (0000ms, 0701ms total)
T2F78 002:192 JLINK_WriteReg(MSP, 0x20001000)  returns 0x00 (0001ms, 0702ms total)
T2F78 002:193 JLINK_WriteReg(PSP, 0x20001000)  returns 0x00 (0000ms, 0702ms total)
T2F78 002:193 JLINK_WriteReg(CFBP, 0x00000000)  returns 0x00 (0000ms, 0702ms total)
T2F78 002:193 JLINK_SetBPEx(Addr = 0x20000000, Type = 0xFFFFFFF2)  returns 0x00000005 (0000ms, 0702ms total)
T2F78 002:193 JLINK_Go() (0002ms, 0704ms total)
T2F78 002:195 JLINK_IsHalted()  returns FALSE (0001ms, 0705ms total)
T2F78 002:428 JLINK_IsHalted() -- CPU_ReadMem(2 bytes @ 0x20000000)  returns TRUE (0004ms, 0708ms total)
T2F78 002:432 JLINK_ReadReg(R15 (PC))  returns 0x20000000 (0000ms, 0704ms total)
T2F78 002:432 JLINK_ClrBPEx(BPHandle = 0x00000005)  returns 0x00 (0000ms, 0704ms total)
T2F78 002:432 JLINK_ReadReg(R0)  returns 0x00000000 (0000ms, 0704ms total)
T2F78 002:433 JLINK_WriteMem(0x20000164, 0x0400 Bytes, ...) - Data: 4E 4A 12 78 88 54 4D 48 00 78 40 1C 4B 49 08 70 ... -- CPU_WriteMem(1024 bytes @ 0x20000164)  returns 0x400 (0013ms, 0717ms total)
T2F78 002:446 JLINK_WriteReg(R0, 0x08000400)  returns 0x00 (0000ms, 0717ms total)
T2F78 002:446 JLINK_WriteReg(R1, 0x00000400)  returns 0x00 (0000ms, 0717ms total)
T2F78 002:446 JLINK_WriteReg(R2, 0x20000164)  returns 0x00 (0000ms, 0717ms total)
T2F78 002:446 JLINK_WriteReg(R3, 0x00000000)  returns 0x00 (0000ms, 0717ms total)
T2F78 002:446 JLINK_WriteReg(R4, 0x00000000)  returns 0x00 (0001ms, 0718ms total)
T2F78 002:447 JLINK_WriteReg(R5, 0x00000000)  returns 0x00 (0000ms, 0718ms total)
T2F78 002:447 JLINK_WriteReg(R6, 0x00000000)  returns 0x00 (0000ms, 0718ms total)
T2F78 002:447 JLINK_WriteReg(R7, 0x00000000)  returns 0x00 (0000ms, 0718ms total)
T2F78 002:447 JLINK_WriteReg(R8, 0x00000000)  returns 0x00 (0000ms, 0718ms total)
T2F78 002:447 JLINK_WriteReg(R9, 0x20000160)  returns 0x00 (0000ms, 0718ms total)
T2F78 002:447 JLINK_WriteReg(R10, 0x00000000)  returns 0x00 (0000ms, 0718ms total)
T2F78 002:447 JLINK_WriteReg(R11, 0x00000000)  returns 0x00 (0000ms, 0718ms total)
T2F78 002:447 JLINK_WriteReg(R12, 0x00000000)  returns 0x00 (0000ms, 0718ms total)
T2F78 002:447 JLINK_WriteReg(R13 (SP), 0x20001000)  returns 0x00 (0000ms, 0718ms total)
T2F78 002:447 JLINK_WriteReg(R14, 0x20000001)  returns 0x00 (0001ms, 0719ms total)
T2F78 002:448 JLINK_WriteReg(R15 (PC), 0x200000F4)  returns 0x00 (0000ms, 0719ms total)
T2F78 002:448 JLINK_WriteReg(XPSR, 0x01000000)  returns 0x00 (0000ms, 0719ms total)
T2F78 002:448 JLINK_WriteReg(MSP, 0x20001000)  returns 0x00 (0000ms, 0719ms total)
T2F78 002:448 JLINK_WriteReg(PSP, 0x20001000)  returns 0x00 (0000ms, 0719ms total)
T2F78 002:448 JLINK_WriteReg(CFBP, 0x00000000)  returns 0x00 (0000ms, 0719ms total)
T2F78 002:448 JLINK_SetBPEx(Addr = 0x20000000, Type = 0xFFFFFFF2)  returns 0x00000006 (0000ms, 0719ms total)
T2F78 002:448 JLINK_Go() (0002ms, 0721ms total)
T2F78 002:450 JLINK_IsHalted()  returns FALSE (0001ms, 0722ms total)
T2F78 002:654 JLINK_IsHalted() -- CPU_ReadMem(2 bytes @ 0x20000000)  returns TRUE (0003ms, 0724ms total)
T2F78 002:657 JLINK_ReadReg(R15 (PC))  returns 0x20000000 (0001ms, 0722ms total)
T2F78 002:658 JLINK_ClrBPEx(BPHandle = 0x00000006)  returns 0x00 (0000ms, 0722ms total)
T2F78 002:658 JLINK_ReadReg(R0)  returns 0x00000000 (0000ms, 0722ms total)
T2F78 002:660 JLINK_WriteMem(0x20000164, 0x0400 Bytes, ...) - Data: 53 48 FF F7 BE FD 3E E1 52 48 40 79 51 49 09 79 ... -- CPU_WriteMem(1024 bytes @ 0x20000164)  returns 0x400 (0012ms, 0734ms total)
T2F78 002:672 JLINK_WriteReg(R0, 0x08000800)  returns 0x00 (0000ms, 0734ms total)
T2F78 002:672 JLINK_WriteReg(R1, 0x00000400)  returns 0x00 (0000ms, 0734ms total)
T2F78 002:672 JLINK_WriteReg(R2, 0x20000164)  returns 0x00 (0000ms, 0734ms total)
T2F78 002:672 JLINK_WriteReg(R3, 0x00000000)  returns 0x00 (0000ms, 0734ms total)
T2F78 002:672 JLINK_WriteReg(R4, 0x00000000)  returns 0x00 (0001ms, 0735ms total)
T2F78 002:673 JLINK_WriteReg(R5, 0x00000000)  returns 0x00 (0000ms, 0735ms total)
T2F78 002:673 JLINK_WriteReg(R6, 0x00000000)  returns 0x00 (0000ms, 0735ms total)
T2F78 002:673 JLINK_WriteReg(R7, 0x00000000)  returns 0x00 (0000ms, 0735ms total)
T2F78 002:673 JLINK_WriteReg(R8, 0x00000000)  returns 0x00 (0000ms, 0735ms total)
T2F78 002:673 JLINK_WriteReg(R9, 0x20000160)  returns 0x00 (0000ms, 0735ms total)
T2F78 002:673 JLINK_WriteReg(R10, 0x00000000)  returns 0x00 (0000ms, 0735ms total)
T2F78 002:673 JLINK_WriteReg(R11, 0x00000000)  returns 0x00 (0000ms, 0735ms total)
T2F78 002:673 JLINK_WriteReg(R12, 0x00000000)  returns 0x00 (0000ms, 0735ms total)
T2F78 002:673 JLINK_WriteReg(R13 (SP), 0x20001000)  returns 0x00 (0001ms, 0736ms total)
T2F78 002:674 JLINK_WriteReg(R14, 0x20000001)  returns 0x00 (0000ms, 0736ms total)
T2F78 002:674 JLINK_WriteReg(R15 (PC), 0x200000F4)  returns 0x00 (0000ms, 0736ms total)
T2F78 002:674 JLINK_WriteReg(XPSR, 0x01000000)  returns 0x00 (0000ms, 0736ms total)
T2F78 002:674 JLINK_WriteReg(MSP, 0x20001000)  returns 0x00 (0000ms, 0736ms total)
T2F78 002:674 JLINK_WriteReg(PSP, 0x20001000)  returns 0x00 (0000ms, 0736ms total)
T2F78 002:674 JLINK_WriteReg(CFBP, 0x00000000)  returns 0x00 (0000ms, 0736ms total)
T2F78 002:674 JLINK_SetBPEx(Addr = 0x20000000, Type = 0xFFFFFFF2)  returns 0x00000007 (0000ms, 0736ms total)
T2F78 002:674 JLINK_Go() (0002ms, 0738ms total)
T2F78 002:676 JLINK_IsHalted()  returns FALSE (0001ms, 0739ms total)
T2F78 002:862 JLINK_IsHalted() -- CPU_ReadMem(2 bytes @ 0x20000000)  returns TRUE (0003ms, 0741ms total)
T2F78 002:865 JLINK_ReadReg(R15 (PC))  returns 0x20000000 (0001ms, 0739ms total)
T2F78 002:866 JLINK_ClrBPEx(BPHandle = 0x00000007)  returns 0x00 (0000ms, 0739ms total)
T2F78 002:866 JLINK_ReadReg(R0)  returns 0x00000000 (0000ms, 0739ms total)
T2F78 002:867 JLINK_WriteMem(0x20000164, 0x0400 Bytes, ...) - Data: C8 70 59 48 00 79 08 71 57 48 40 79 48 71 06 21 ... -- CPU_WriteMem(1024 bytes @ 0x20000164)  returns 0x400 (0012ms, 0751ms total)
T2F78 002:879 JLINK_WriteReg(R0, 0x08000C00)  returns 0x00 (0000ms, 0751ms total)
T2F78 002:879 JLINK_WriteReg(R1, 0x00000400)  returns 0x00 (0001ms, 0752ms total)
T2F78 002:880 JLINK_WriteReg(R2, 0x20000164)  returns 0x00 (0000ms, 0752ms total)
T2F78 002:880 JLINK_WriteReg(R3, 0x00000000)  returns 0x00 (0000ms, 0752ms total)
T2F78 002:880 JLINK_WriteReg(R4, 0x00000000)  returns 0x00 (0000ms, 0752ms total)
T2F78 002:880 JLINK_WriteReg(R5, 0x00000000)  returns 0x00 (0000ms, 0752ms total)
T2F78 002:880 JLINK_WriteReg(R6, 0x00000000)  returns 0x00 (0000ms, 0752ms total)
T2F78 002:880 JLINK_WriteReg(R7, 0x00000000)  returns 0x00 (0000ms, 0752ms total)
T2F78 002:880 JLINK_WriteReg(R8, 0x00000000)  returns 0x00 (0000ms, 0752ms total)
T2F78 002:880 JLINK_WriteReg(R9, 0x20000160)  returns 0x00 (0000ms, 0752ms total)
T2F78 002:880 JLINK_WriteReg(R10, 0x00000000)  returns 0x00 (0000ms, 0752ms total)
T2F78 002:880 JLINK_WriteReg(R11, 0x00000000)  returns 0x00 (0000ms, 0752ms total)
T2F78 002:880 JLINK_WriteReg(R12, 0x00000000)  returns 0x00 (0000ms, 0752ms total)
T2F78 002:881 JLINK_WriteReg(R13 (SP), 0x20001000)  returns 0x00 (0000ms, 0753ms total)
T2F78 002:881 JLINK_WriteReg(R14, 0x20000001)  returns 0x00 (0000ms, 0753ms total)
T2F78 002:881 JLINK_WriteReg(R15 (PC), 0x200000F4)  returns 0x00 (0000ms, 0753ms total)
T2F78 002:881 JLINK_WriteReg(XPSR, 0x01000000)  returns 0x00 (0000ms, 0753ms total)
T2F78 002:881 JLINK_WriteReg(MSP, 0x20001000)  returns 0x00 (0000ms, 0753ms total)
T2F78 002:881 JLINK_WriteReg(PSP, 0x20001000)  returns 0x00 (0000ms, 0753ms total)
T2F78 002:881 JLINK_WriteReg(CFBP, 0x00000000)  returns 0x00 (0000ms, 0753ms total)
T2F78 002:881 JLINK_SetBPEx(Addr = 0x20000000, Type = 0xFFFFFFF2)  returns 0x00000008 (0000ms, 0753ms total)
T2F78 002:881 JLINK_Go() (0002ms, 0755ms total)
T2F78 002:883 JLINK_IsHalted()  returns FALSE (0001ms, 0756ms total)
T2F78 003:068 JLINK_IsHalted() -- CPU_ReadMem(2 bytes @ 0x20000000)  returns TRUE (0003ms, 0758ms total)
T2F78 003:071 JLINK_ReadReg(R15 (PC))  returns 0x20000000 (0001ms, 0756ms total)
T2F78 003:072 JLINK_ClrBPEx(BPHandle = 0x00000008)  returns 0x00 (0000ms, 0756ms total)
T2F78 003:072 JLINK_ReadReg(R0)  returns 0x00000000 (0000ms, 0756ms total)
T2F78 003:073 JLINK_WriteMem(0x20000164, 0x0400 Bytes, ...) - Data: C8 70 6D 48 00 79 08 71 6B 48 40 79 48 71 06 21 ... -- CPU_WriteMem(1024 bytes @ 0x20000164)  returns 0x400 (0012ms, 0768ms total)
T2F78 003:085 JLINK_WriteReg(R0, 0x08001000)  returns 0x00 (0000ms, 0768ms total)
T2F78 003:085 JLINK_WriteReg(R1, 0x00000400)  returns 0x00 (0000ms, 0768ms total)
T2F78 003:085 JLINK_WriteReg(R2, 0x20000164)  returns 0x00 (0000ms, 0768ms total)
T2F78 003:086 JLINK_WriteReg(R3, 0x00000000)  returns 0x00 (0000ms, 0769ms total)
T2F78 003:086 JLINK_WriteReg(R4, 0x00000000)  returns 0x00 (0000ms, 0769ms total)
T2F78 003:086 JLINK_WriteReg(R5, 0x00000000)  returns 0x00 (0000ms, 0769ms total)
T2F78 003:086 JLINK_WriteReg(R6, 0x00000000)  returns 0x00 (0000ms, 0769ms total)
T2F78 003:086 JLINK_WriteReg(R7, 0x00000000)  returns 0x00 (0000ms, 0769ms total)
T2F78 003:086 JLINK_WriteReg(R8, 0x00000000)  returns 0x00 (0000ms, 0769ms total)
T2F78 003:086 JLINK_WriteReg(R9, 0x20000160)  returns 0x00 (0000ms, 0769ms total)
T2F78 003:086 JLINK_WriteReg(R10, 0x00000000)  returns 0x00 (0000ms, 0769ms total)
T2F78 003:086 JLINK_WriteReg(R11, 0x00000000)  returns 0x00 (0001ms, 0770ms total)
T2F78 003:087 JLINK_WriteReg(R12, 0x00000000)  returns 0x00 (0000ms, 0770ms total)
T2F78 003:087 JLINK_WriteReg(R13 (SP), 0x20001000)  returns 0x00 (0000ms, 0770ms total)
T2F78 003:087 JLINK_WriteReg(R14, 0x20000001)  returns 0x00 (0000ms, 0770ms total)
T2F78 003:087 JLINK_WriteReg(R15 (PC), 0x200000F4)  returns 0x00 (0000ms, 0770ms total)
T2F78 003:087 JLINK_WriteReg(XPSR, 0x01000000)  returns 0x00 (0000ms, 0770ms total)
T2F78 003:087 JLINK_WriteReg(MSP, 0x20001000)  returns 0x00 (0000ms, 0770ms total)
T2F78 003:087 JLINK_WriteReg(PSP, 0x20001000)  returns 0x00 (0000ms, 0770ms total)
T2F78 003:087 JLINK_WriteReg(CFBP, 0x00000000)  returns 0x00 (0000ms, 0770ms total)
T2F78 003:087 JLINK_SetBPEx(Addr = 0x20000000, Type = 0xFFFFFFF2)  returns 0x00000009 (0001ms, 0771ms total)
T2F78 003:088 JLINK_Go() (0001ms, 0772ms total)
T2F78 003:089 JLINK_IsHalted()  returns FALSE (0001ms, 0773ms total)
T2F78 003:094 JLINK_IsHalted()  returns FALSE (0000ms, 0772ms total)
T2F78 003:096 JLINK_IsHalted()  returns FALSE (0000ms, 0772ms total)
T2F78 003:098 JLINK_IsHalted()  returns FALSE (0000ms, 0772ms total)
T2F78 003:115 JLINK_IsHalted()  returns FALSE (0000ms, 0772ms total)
T2F78 003:117 JLINK_IsHalted()  returns FALSE (0000ms, 0772ms total)
T2F78 003:148 JLINK_IsHalted() -- CPU_ReadMem(2 bytes @ 0x20000000)  returns TRUE (0003ms, 0775ms total)
T2F78 003:151 JLINK_ReadReg(R15 (PC))  returns 0x20000000 (0001ms, 0773ms total)
T2F78 003:152 JLINK_ClrBPEx(BPHandle = 0x00000009)  returns 0x00 (0000ms, 0773ms total)
T2F78 003:152 JLINK_ReadReg(R0)  returns 0x00000000 (0000ms, 0773ms total)
T2F78 003:153 JLINK_WriteMem(0x20000164, 0x0400 Bytes, ...) - Data: 00 79 08 71 7B 48 40 79 48 71 06 21 78 48 FE F7 ... -- CPU_WriteMem(1024 bytes @ 0x20000164)  returns 0x400 (0012ms, 0785ms total)
T2F78 003:165 JLINK_WriteReg(R0, 0x08001400)  returns 0x00 (0000ms, 0785ms total)
T2F78 003:165 JLINK_WriteReg(R1, 0x00000400)  returns 0x00 (0000ms, 0785ms total)
T2F78 003:165 JLINK_WriteReg(R2, 0x20000164)  returns 0x00 (0000ms, 0785ms total)
T2F78 003:165 JLINK_WriteReg(R3, 0x00000000)  returns 0x00 (0000ms, 0785ms total)
T2F78 003:166 JLINK_WriteReg(R4, 0x00000000)  returns 0x00 (0000ms, 0785ms total)
T2F78 003:166 JLINK_WriteReg(R5, 0x00000000)  returns 0x00 (0000ms, 0785ms total)
T2F78 003:166 JLINK_WriteReg(R6, 0x00000000)  returns 0x00 (0000ms, 0785ms total)
T2F78 003:166 JLINK_WriteReg(R7, 0x00000000)  returns 0x00 (0000ms, 0785ms total)
T2F78 003:166 JLINK_WriteReg(R8, 0x00000000)  returns 0x00 (0000ms, 0785ms total)
T2F78 003:166 JLINK_WriteReg(R9, 0x20000160)  returns 0x00 (0000ms, 0785ms total)
T2F78 003:166 JLINK_WriteReg(R10, 0x00000000)  returns 0x00 (0000ms, 0785ms total)
T2F78 003:166 JLINK_WriteReg(R11, 0x00000000)  returns 0x00 (0000ms, 0785ms total)
T2F78 003:166 JLINK_WriteReg(R12, 0x00000000)  returns 0x00 (0000ms, 0785ms total)
T2F78 003:166 JLINK_WriteReg(R13 (SP), 0x20001000)  returns 0x00 (0000ms, 0785ms total)
T2F78 003:167 JLINK_WriteReg(R14, 0x20000001)  returns 0x00 (0000ms, 0786ms total)
T2F78 003:167 JLINK_WriteReg(R15 (PC), 0x200000F4)  returns 0x00 (0000ms, 0786ms total)
T2F78 003:167 JLINK_WriteReg(XPSR, 0x01000000)  returns 0x00 (0000ms, 0786ms total)
T2F78 003:167 JLINK_WriteReg(MSP, 0x20001000)  returns 0x00 (0000ms, 0786ms total)
T2F78 003:167 JLINK_WriteReg(PSP, 0x20001000)  returns 0x00 (0000ms, 0786ms total)
T2F78 003:167 JLINK_WriteReg(CFBP, 0x00000000)  returns 0x00 (0000ms, 0786ms total)
T2F78 003:167 JLINK_SetBPEx(Addr = 0x20000000, Type = 0xFFFFFFF2)  returns 0x0000000A (0000ms, 0786ms total)
T2F78 003:167 JLINK_Go() (0002ms, 0788ms total)
T2F78 003:169 JLINK_IsHalted()  returns FALSE (0001ms, 0789ms total)
T2F78 003:186 JLINK_IsHalted()  returns FALSE (0000ms, 0788ms total)
T2F78 003:188 JLINK_IsHalted()  returns FALSE (0000ms, 0788ms total)
T2F78 003:190 JLINK_IsHalted()  returns FALSE (0000ms, 0788ms total)
T2F78 003:192 JLINK_IsHalted()  returns FALSE (0000ms, 0788ms total)
T2F78 003:200 JLINK_IsHalted()  returns FALSE (0000ms, 0788ms total)
T2F78 003:202 JLINK_IsHalted()  returns FALSE (0000ms, 0788ms total)
T2F78 003:205 JLINK_IsHalted()  returns FALSE (0000ms, 0788ms total)
T2F78 003:207 JLINK_IsHalted()  returns FALSE (0000ms, 0788ms total)
T2F78 003:210 JLINK_IsHalted()  returns FALSE (0000ms, 0788ms total)
T2F78 003:212 JLINK_IsHalted()  returns FALSE (0000ms, 0788ms total)
T2F78 003:215 JLINK_IsHalted()  returns FALSE (0000ms, 0788ms total)
T2F78 003:217 JLINK_IsHalted()  returns FALSE (0000ms, 0788ms total)
T2F78 003:224 JLINK_IsHalted() -- CPU_ReadMem(2 bytes @ 0x20000000)  returns TRUE (0003ms, 0791ms total)
T2F78 003:228 JLINK_ReadReg(R15 (PC))  returns 0x20000000 (0000ms, 0788ms total)
T2F78 003:228 JLINK_ClrBPEx(BPHandle = 0x0000000A)  returns 0x00 (0000ms, 0788ms total)
T2F78 003:228 JLINK_ReadReg(R0)  returns 0x00000000 (0000ms, 0788ms total)
T2F78 003:229 JLINK_WriteMem(0x20000164, 0x0400 Bytes, ...) - Data: 30 BD 08 B5 01 21 04 20 03 F0 61 F9 C0 20 AD F8 ... -- CPU_WriteMem(1024 bytes @ 0x20000164)  returns 0x400 (0013ms, 0801ms total)
T2F78 003:242 JLINK_WriteReg(R0, 0x08001800)  returns 0x00 (0000ms, 0801ms total)
T2F78 003:242 JLINK_WriteReg(R1, 0x00000400)  returns 0x00 (0000ms, 0801ms total)
T2F78 003:242 JLINK_WriteReg(R2, 0x20000164)  returns 0x00 (0000ms, 0801ms total)
T2F78 003:242 JLINK_WriteReg(R3, 0x00000000)  returns 0x00 (0000ms, 0801ms total)
T2F78 003:242 JLINK_WriteReg(R4, 0x00000000)  returns 0x00 (0000ms, 0801ms total)
T2F78 003:242 JLINK_WriteReg(R5, 0x00000000)  returns 0x00 (0000ms, 0801ms total)
T2F78 003:242 JLINK_WriteReg(R6, 0x00000000)  returns 0x00 (0000ms, 0801ms total)
T2F78 003:242 JLINK_WriteReg(R7, 0x00000000)  returns 0x00 (0001ms, 0802ms total)
T2F78 003:243 JLINK_WriteReg(R8, 0x00000000)  returns 0x00 (0000ms, 0802ms total)
T2F78 003:243 JLINK_WriteReg(R9, 0x20000160)  returns 0x00 (0000ms, 0802ms total)
T2F78 003:243 JLINK_WriteReg(R10, 0x00000000)  returns 0x00 (0000ms, 0802ms total)
T2F78 003:243 JLINK_WriteReg(R11, 0x00000000)  returns 0x00 (0000ms, 0802ms total)
T2F78 003:243 JLINK_WriteReg(R12, 0x00000000)  returns 0x00 (0000ms, 0802ms total)
T2F78 003:243 JLINK_WriteReg(R13 (SP), 0x20001000)  returns 0x00 (0000ms, 0802ms total)
T2F78 003:243 JLINK_WriteReg(R14, 0x20000001)  returns 0x00 (0000ms, 0802ms total)
T2F78 003:243 JLINK_WriteReg(R15 (PC), 0x200000F4)  returns 0x00 (0000ms, 0802ms total)
T2F78 003:243 JLINK_WriteReg(XPSR, 0x01000000)  returns 0x00 (0000ms, 0802ms total)
T2F78 003:243 JLINK_WriteReg(MSP, 0x20001000)  returns 0x00 (0001ms, 0803ms total)
T2F78 003:244 JLINK_WriteReg(PSP, 0x20001000)  returns 0x00 (0000ms, 0803ms total)
T2F78 003:244 JLINK_WriteReg(CFBP, 0x00000000)  returns 0x00 (0000ms, 0803ms total)
T2F78 003:244 JLINK_SetBPEx(Addr = 0x20000000, Type = 0xFFFFFFF2)  returns 0x0000000B (0000ms, 0803ms total)
T2F78 003:244 JLINK_Go() (0002ms, 0805ms total)
T2F78 003:246 JLINK_IsHalted()  returns FALSE (0001ms, 0806ms total)
T2F78 003:266 JLINK_IsHalted()  returns FALSE (0000ms, 0805ms total)
T2F78 003:268 JLINK_IsHalted()  returns FALSE (0000ms, 0805ms total)
T2F78 003:270 JLINK_IsHalted()  returns FALSE (0000ms, 0805ms total)
T2F78 003:272 JLINK_IsHalted()  returns FALSE (0000ms, 0805ms total)
T2F78 003:277 JLINK_IsHalted()  returns FALSE (0000ms, 0805ms total)
T2F78 003:281 JLINK_IsHalted()  returns FALSE (0000ms, 0805ms total)
T2F78 003:283 JLINK_IsHalted()  returns FALSE (0000ms, 0805ms total)
T2F78 003:285 JLINK_IsHalted()  returns FALSE (0000ms, 0805ms total)
T2F78 003:287 JLINK_IsHalted()  returns FALSE (0000ms, 0805ms total)
T2F78 003:327 JLINK_IsHalted() -- CPU_ReadMem(2 bytes @ 0x20000000)  returns TRUE (0004ms, 0809ms total)
T2F78 003:331 JLINK_ReadReg(R15 (PC))  returns 0x20000000 (0000ms, 0805ms total)
T2F78 003:331 JLINK_ClrBPEx(BPHandle = 0x0000000B)  returns 0x00 (0000ms, 0805ms total)
T2F78 003:331 JLINK_ReadReg(R0)  returns 0x00000000 (0000ms, 0805ms total)
T2F78 003:332 JLINK_WriteMem(0x20000164, 0x0400 Bytes, ...) - Data: 0D 00 01 20 8D F8 0E 00 8D F8 0F 00 03 A8 03 F0 ... -- CPU_WriteMem(1024 bytes @ 0x20000164)  returns 0x400 (0013ms, 0818ms total)
T2F78 003:345 JLINK_WriteReg(R0, 0x08001C00)  returns 0x00 (0000ms, 0818ms total)
T2F78 003:345 JLINK_WriteReg(R1, 0x00000400)  returns 0x00 (0000ms, 0818ms total)
T2F78 003:345 JLINK_WriteReg(R2, 0x20000164)  returns 0x00 (0000ms, 0818ms total)
T2F78 003:345 JLINK_WriteReg(R3, 0x00000000)  returns 0x00 (0000ms, 0818ms total)
T2F78 003:345 JLINK_WriteReg(R4, 0x00000000)  returns 0x00 (0001ms, 0819ms total)
T2F78 003:346 JLINK_WriteReg(R5, 0x00000000)  returns 0x00 (0000ms, 0819ms total)
T2F78 003:346 JLINK_WriteReg(R6, 0x00000000)  returns 0x00 (0000ms, 0819ms total)
T2F78 003:346 JLINK_WriteReg(R7, 0x00000000)  returns 0x00 (0000ms, 0819ms total)
T2F78 003:346 JLINK_WriteReg(R8, 0x00000000)  returns 0x00 (0000ms, 0819ms total)
T2F78 003:346 JLINK_WriteReg(R9, 0x20000160)  returns 0x00 (0000ms, 0819ms total)
T2F78 003:346 JLINK_WriteReg(R10, 0x00000000)  returns 0x00 (0000ms, 0819ms total)
T2F78 003:346 JLINK_WriteReg(R11, 0x00000000)  returns 0x00 (0000ms, 0819ms total)
T2F78 003:346 JLINK_WriteReg(R12, 0x00000000)  returns 0x00 (0000ms, 0819ms total)
T2F78 003:346 JLINK_WriteReg(R13 (SP), 0x20001000)  returns 0x00 (0000ms, 0819ms total)
T2F78 003:346 JLINK_WriteReg(R14, 0x20000001)  returns 0x00 (0001ms, 0820ms total)
T2F78 003:347 JLINK_WriteReg(R15 (PC), 0x200000F4)  returns 0x00 (0000ms, 0820ms total)
T2F78 003:347 JLINK_WriteReg(XPSR, 0x01000000)  returns 0x00 (0000ms, 0820ms total)
T2F78 003:347 JLINK_WriteReg(MSP, 0x20001000)  returns 0x00 (0000ms, 0820ms total)
T2F78 003:347 JLINK_WriteReg(PSP, 0x20001000)  returns 0x00 (0000ms, 0820ms total)
T2F78 003:347 JLINK_WriteReg(CFBP, 0x00000000)  returns 0x00 (0000ms, 0820ms total)
T2F78 003:347 JLINK_SetBPEx(Addr = 0x20000000, Type = 0xFFFFFFF2)  returns 0x0000000C (0000ms, 0820ms total)
T2F78 003:347 JLINK_Go() (0002ms, 0822ms total)
T2F78 003:349 JLINK_IsHalted()  returns FALSE (0001ms, 0823ms total)
T2F78 003:355 JLINK_IsHalted()  returns FALSE (0000ms, 0822ms total)
T2F78 003:374 JLINK_IsHalted()  returns FALSE (0000ms, 0822ms total)
T2F78 003:376 JLINK_IsHalted()  returns FALSE (0000ms, 0822ms total)
T2F78 003:378 JLINK_IsHalted()  returns FALSE (0000ms, 0822ms total)
T2F78 003:380 JLINK_IsHalted()  returns FALSE (0000ms, 0822ms total)
T2F78 003:397 JLINK_IsHalted()  returns FALSE (0000ms, 0822ms total)
T2F78 003:399 JLINK_IsHalted()  returns FALSE (0000ms, 0822ms total)
T2F78 003:419 JLINK_IsHalted() -- CPU_ReadMem(2 bytes @ 0x20000000)  returns TRUE (0003ms, 0825ms total)
T2F78 003:422 JLINK_ReadReg(R15 (PC))  returns 0x20000000 (0001ms, 0823ms total)
T2F78 003:423 JLINK_ClrBPEx(BPHandle = 0x0000000C)  returns 0x00 (0000ms, 0823ms total)
T2F78 003:423 JLINK_ReadReg(R0)  returns 0x00000000 (0000ms, 0823ms total)
T2F78 003:424 JLINK_WriteMem(0x20000164, 0x0400 Bytes, ...) - Data: 18 20 8D F8 07 00 01 A9 AD 48 02 F0 1F FC 4F F4 ... -- CPU_WriteMem(1024 bytes @ 0x20000164)  returns 0x400 (0013ms, 0836ms total)
T2F78 003:437 JLINK_WriteReg(R0, 0x08002000)  returns 0x00 (0000ms, 0836ms total)
T2F78 003:437 JLINK_WriteReg(R1, 0x00000400)  returns 0x00 (0000ms, 0836ms total)
T2F78 003:437 JLINK_WriteReg(R2, 0x20000164)  returns 0x00 (0000ms, 0836ms total)
T2F78 003:437 JLINK_WriteReg(R3, 0x00000000)  returns 0x00 (0000ms, 0836ms total)
T2F78 003:437 JLINK_WriteReg(R4, 0x00000000)  returns 0x00 (0001ms, 0837ms total)
T2F78 003:438 JLINK_WriteReg(R5, 0x00000000)  returns 0x00 (0000ms, 0837ms total)
T2F78 003:438 JLINK_WriteReg(R6, 0x00000000)  returns 0x00 (0000ms, 0837ms total)
T2F78 003:438 JLINK_WriteReg(R7, 0x00000000)  returns 0x00 (0000ms, 0837ms total)
T2F78 003:438 JLINK_WriteReg(R8, 0x00000000)  returns 0x00 (0000ms, 0837ms total)
T2F78 003:438 JLINK_WriteReg(R9, 0x20000160)  returns 0x00 (0000ms, 0837ms total)
T2F78 003:438 JLINK_WriteReg(R10, 0x00000000)  returns 0x00 (0000ms, 0837ms total)
T2F78 003:438 JLINK_WriteReg(R11, 0x00000000)  returns 0x00 (0001ms, 0838ms total)
T2F78 003:439 JLINK_WriteReg(R12, 0x00000000)  returns 0x00 (0000ms, 0838ms total)
T2F78 003:439 JLINK_WriteReg(R13 (SP), 0x20001000)  returns 0x00 (0000ms, 0838ms total)
T2F78 003:439 JLINK_WriteReg(R14, 0x20000001)  returns 0x00 (0000ms, 0838ms total)
T2F78 003:439 JLINK_WriteReg(R15 (PC), 0x200000F4)  returns 0x00 (0000ms, 0838ms total)
T2F78 003:439 JLINK_WriteReg(XPSR, 0x01000000)  returns 0x00 (0000ms, 0838ms total)
T2F78 003:439 JLINK_WriteReg(MSP, 0x20001000)  returns 0x00 (0001ms, 0839ms total)
T2F78 003:440 JLINK_WriteReg(PSP, 0x20001000)  returns 0x00 (0000ms, 0839ms total)
T2F78 003:440 JLINK_WriteReg(CFBP, 0x00000000)  returns 0x00 (0000ms, 0839ms total)
T2F78 003:440 JLINK_SetBPEx(Addr = 0x20000000, Type = 0xFFFFFFF2)  returns 0x0000000D (0000ms, 0839ms total)
T2F78 003:440 JLINK_Go() (0002ms, 0841ms total)
T2F78 003:442 JLINK_IsHalted()  returns FALSE (0000ms, 0841ms total)
T2F78 003:444 JLINK_IsHalted()  returns FALSE (0000ms, 0841ms total)
T2F78 003:454 JLINK_IsHalted()  returns FALSE (0000ms, 0841ms total)
T2F78 003:456 JLINK_IsHalted()  returns FALSE (0000ms, 0841ms total)
T2F78 003:461 JLINK_IsHalted()  returns FALSE (0000ms, 0841ms total)
T2F78 003:463 JLINK_IsHalted()  returns FALSE (0000ms, 0841ms total)
T2F78 003:467 JLINK_IsHalted()  returns FALSE (0000ms, 0841ms total)
T2F78 003:491 JLINK_IsHalted()  returns FALSE (0000ms, 0841ms total)
T2F78 003:493 JLINK_IsHalted()  returns FALSE (0000ms, 0841ms total)
T2F78 003:495 JLINK_IsHalted() -- CPU_ReadMem(2 bytes @ 0x20000000)  returns TRUE (0003ms, 0844ms total)
T2F78 003:498 JLINK_ReadReg(R15 (PC))  returns 0x20000000 (0001ms, 0842ms total)
T2F78 003:499 JLINK_ClrBPEx(BPHandle = 0x0000000D)  returns 0x00 (0000ms, 0842ms total)
T2F78 003:499 JLINK_ReadReg(R0)  returns 0x00000000 (0000ms, 0842ms total)
T2F78 003:500 JLINK_WriteMem(0x20000164, 0x0400 Bytes, ...) - Data: 00 20 8D F8 19 00 09 20 AD F8 14 00 3B E0 05 20 ... -- CPU_WriteMem(1024 bytes @ 0x20000164)  returns 0x400 (0012ms, 0854ms total)
T2F78 003:512 JLINK_WriteReg(R0, 0x08002400)  returns 0x00 (0000ms, 0854ms total)
T2F78 003:512 JLINK_WriteReg(R1, 0x00000400)  returns 0x00 (0001ms, 0855ms total)
T2F78 003:513 JLINK_WriteReg(R2, 0x20000164)  returns 0x00 (0000ms, 0855ms total)
T2F78 003:513 JLINK_WriteReg(R3, 0x00000000)  returns 0x00 (0000ms, 0855ms total)
T2F78 003:513 JLINK_WriteReg(R4, 0x00000000)  returns 0x00 (0000ms, 0855ms total)
T2F78 003:513 JLINK_WriteReg(R5, 0x00000000)  returns 0x00 (0000ms, 0855ms total)
T2F78 003:513 JLINK_WriteReg(R6, 0x00000000)  returns 0x00 (0000ms, 0855ms total)
T2F78 003:513 JLINK_WriteReg(R7, 0x00000000)  returns 0x00 (0000ms, 0855ms total)
T2F78 003:513 JLINK_WriteReg(R8, 0x00000000)  returns 0x00 (0000ms, 0855ms total)
T2F78 003:513 JLINK_WriteReg(R9, 0x20000160)  returns 0x00 (0000ms, 0855ms total)
T2F78 003:513 JLINK_WriteReg(R10, 0x00000000)  returns 0x00 (0000ms, 0855ms total)
T2F78 003:514 JLINK_WriteReg(R11, 0x00000000)  returns 0x00 (0000ms, 0855ms total)
T2F78 003:514 JLINK_WriteReg(R12, 0x00000000)  returns 0x00 (0000ms, 0855ms total)
T2F78 003:514 JLINK_WriteReg(R13 (SP), 0x20001000)  returns 0x00 (0000ms, 0855ms total)
T2F78 003:514 JLINK_WriteReg(R14, 0x20000001)  returns 0x00 (0000ms, 0855ms total)
T2F78 003:514 JLINK_WriteReg(R15 (PC), 0x200000F4)  returns 0x00 (0000ms, 0855ms total)
T2F78 003:514 JLINK_WriteReg(XPSR, 0x01000000)  returns 0x00 (0000ms, 0855ms total)
T2F78 003:514 JLINK_WriteReg(MSP, 0x20001000)  returns 0x00 (0000ms, 0855ms total)
T2F78 003:514 JLINK_WriteReg(PSP, 0x20001000)  returns 0x00 (0000ms, 0855ms total)
T2F78 003:514 JLINK_WriteReg(CFBP, 0x00000000)  returns 0x00 (0000ms, 0855ms total)
T2F78 003:514 JLINK_SetBPEx(Addr = 0x20000000, Type = 0xFFFFFFF2)  returns 0x0000000E (0001ms, 0856ms total)
T2F78 003:515 JLINK_Go() (0001ms, 0857ms total)
T2F78 003:516 JLINK_IsHalted()  returns FALSE (0001ms, 0858ms total)
T2F78 003:519 JLINK_IsHalted()  returns FALSE (0000ms, 0857ms total)
T2F78 003:525 JLINK_IsHalted()  returns FALSE (0000ms, 0857ms total)
T2F78 003:527 JLINK_IsHalted()  returns FALSE (0000ms, 0857ms total)
T2F78 003:541 JLINK_IsHalted()  returns FALSE (0000ms, 0857ms total)
T2F78 003:543 JLINK_IsHalted()  returns FALSE (0000ms, 0857ms total)
T2F78 003:562 JLINK_IsHalted()  returns FALSE (0000ms, 0857ms total)
T2F78 003:567 JLINK_IsHalted()  returns FALSE (0000ms, 0857ms total)
T2F78 003:569 JLINK_IsHalted() -- CPU_ReadMem(2 bytes @ 0x20000000)  returns TRUE (0003ms, 0860ms total)
T2F78 003:572 JLINK_ReadReg(R15 (PC))  returns 0x20000000 (0001ms, 0858ms total)
T2F78 003:573 JLINK_ClrBPEx(BPHandle = 0x0000000E)  returns 0x00 (0000ms, 0858ms total)
T2F78 003:573 JLINK_ReadReg(R0)  returns 0x00000000 (0000ms, 0858ms total)
T2F78 003:574 JLINK_WriteMem(0x20000164, 0x0400 Bytes, ...) - Data: 01 79 00 23 06 22 04 20 FF F7 80 FD 1D 22 BB 49 ... -- CPU_WriteMem(1024 bytes @ 0x20000164)  returns 0x400 (0013ms, 0871ms total)
T2F78 003:587 JLINK_WriteReg(R0, 0x08002800)  returns 0x00 (0000ms, 0871ms total)
T2F78 003:587 JLINK_WriteReg(R1, 0x00000400)  returns 0x00 (0000ms, 0871ms total)
T2F78 003:587 JLINK_WriteReg(R2, 0x20000164)  returns 0x00 (0000ms, 0871ms total)
T2F78 003:587 JLINK_WriteReg(R3, 0x00000000)  returns 0x00 (0000ms, 0871ms total)
T2F78 003:587 JLINK_WriteReg(R4, 0x00000000)  returns 0x00 (0000ms, 0871ms total)
T2F78 003:587 JLINK_WriteReg(R5, 0x00000000)  returns 0x00 (0000ms, 0871ms total)
T2F78 003:587 JLINK_WriteReg(R6, 0x00000000)  returns 0x00 (0000ms, 0871ms total)
T2F78 003:588 JLINK_WriteReg(R7, 0x00000000)  returns 0x00 (0000ms, 0871ms total)
T2F78 003:588 JLINK_WriteReg(R8, 0x00000000)  returns 0x00 (0000ms, 0871ms total)
T2F78 003:588 JLINK_WriteReg(R9, 0x20000160)  returns 0x00 (0000ms, 0871ms total)
T2F78 003:588 JLINK_WriteReg(R10, 0x00000000)  returns 0x00 (0000ms, 0871ms total)
T2F78 003:588 JLINK_WriteReg(R11, 0x00000000)  returns 0x00 (0000ms, 0871ms total)
T2F78 003:588 JLINK_WriteReg(R12, 0x00000000)  returns 0x00 (0000ms, 0871ms total)
T2F78 003:588 JLINK_WriteReg(R13 (SP), 0x20001000)  returns 0x00 (0000ms, 0871ms total)
T2F78 003:588 JLINK_WriteReg(R14, 0x20000001)  returns 0x00 (0000ms, 0871ms total)
T2F78 003:588 JLINK_WriteReg(R15 (PC), 0x200000F4)  returns 0x00 (0001ms, 0872ms total)
T2F78 003:589 JLINK_WriteReg(XPSR, 0x01000000)  returns 0x00 (0000ms, 0872ms total)
T2F78 003:589 JLINK_WriteReg(MSP, 0x20001000)  returns 0x00 (0000ms, 0872ms total)
T2F78 003:589 JLINK_WriteReg(PSP, 0x20001000)  returns 0x00 (0000ms, 0872ms total)
T2F78 003:589 JLINK_WriteReg(CFBP, 0x00000000)  returns 0x00 (0000ms, 0872ms total)
T2F78 003:589 JLINK_SetBPEx(Addr = 0x20000000, Type = 0xFFFFFFF2)  returns 0x0000000F (0000ms, 0872ms total)
T2F78 003:589 JLINK_Go() (0002ms, 0874ms total)
T2F78 003:592 JLINK_IsHalted()  returns FALSE (0000ms, 0875ms total)
T2F78 003:612 JLINK_IsHalted()  returns FALSE (0000ms, 0875ms total)
T2F78 003:614 JLINK_IsHalted()  returns FALSE (0000ms, 0875ms total)
T2F78 003:616 JLINK_IsHalted()  returns FALSE (0000ms, 0875ms total)
T2F78 003:620 JLINK_IsHalted()  returns FALSE (0000ms, 0875ms total)
T2F78 003:622 JLINK_IsHalted()  returns FALSE (0000ms, 0875ms total)
T2F78 003:624 JLINK_IsHalted()  returns FALSE (0000ms, 0875ms total)
T2F78 003:626 JLINK_IsHalted()  returns FALSE (0000ms, 0875ms total)
T2F78 003:629 JLINK_IsHalted()  returns FALSE (0000ms, 0875ms total)
T2F78 003:632 JLINK_IsHalted()  returns FALSE (0000ms, 0875ms total)
T2F78 003:635 JLINK_IsHalted()  returns FALSE (0000ms, 0875ms total)
T2F78 003:637 JLINK_IsHalted()  returns FALSE (0000ms, 0875ms total)
T2F78 003:640 JLINK_IsHalted()  returns FALSE (0000ms, 0875ms total)
T2F78 003:642 JLINK_IsHalted()  returns FALSE (0000ms, 0875ms total)
T2F78 003:648 JLINK_IsHalted() -- CPU_ReadMem(2 bytes @ 0x20000000)  returns TRUE (0003ms, 0878ms total)
T2F78 003:652 JLINK_ReadReg(R15 (PC))  returns 0x20000000 (0000ms, 0875ms total)
T2F78 003:652 JLINK_ClrBPEx(BPHandle = 0x0000000F)  returns 0x00 (0000ms, 0875ms total)
T2F78 003:652 JLINK_ReadReg(R0)  returns 0x00000000 (0000ms, 0875ms total)
T2F78 003:653 JLINK_WriteMem(0x20000164, 0x0400 Bytes, ...) - Data: 00 78 88 70 C8 48 00 88 00 12 C8 70 C9 48 00 78 ... -- CPU_WriteMem(1024 bytes @ 0x20000164)  returns 0x400 (0013ms, 0888ms total)
T2F78 003:666 JLINK_WriteReg(R0, 0x08002C00)  returns 0x00 (0000ms, 0888ms total)
T2F78 003:666 JLINK_WriteReg(R1, 0x00000400)  returns 0x00 (0000ms, 0888ms total)
T2F78 003:666 JLINK_WriteReg(R2, 0x20000164)  returns 0x00 (0000ms, 0888ms total)
T2F78 003:666 JLINK_WriteReg(R3, 0x00000000)  returns 0x00 (0000ms, 0888ms total)
T2F78 003:666 JLINK_WriteReg(R4, 0x00000000)  returns 0x00 (0000ms, 0888ms total)
T2F78 003:666 JLINK_WriteReg(R5, 0x00000000)  returns 0x00 (0000ms, 0888ms total)
T2F78 003:666 JLINK_WriteReg(R6, 0x00000000)  returns 0x00 (0000ms, 0888ms total)
T2F78 003:667 JLINK_WriteReg(R7, 0x00000000)  returns 0x00 (0000ms, 0889ms total)
